(1640409546.629795) vcan0 54C#A17080771BB7EF02
(1640409546.830158) vcan0 317#66BBC1520AF9FF16
(1640409547.030374) vcan0 37F#3E619A7EF155
(1640409547.230799) vcan0 292#7C03FF04B810A249
(1640409547.431114) vcan0 413#890C845413D65659
(1640409547.631333) vcan0 373#035969
(1640409547.831691) vcan0 742#55E8173DF24E7876
(1640409548.031988) vcan0 503#0225C121504A8736
(1640409548.232343) vcan0 35B#1553
(1640409548.432698) vcan0 04E#99
(1640409548.632886) vcan0 1A8#BE116A233ABCA120
(1640409548.833165) vcan0 226#F2CC436A3906C71C
(1640409549.033508) vcan0 704#4DDC1D76789A6B32
(1640409549.233850) vcan0 17E#
(1640409549.434196) vcan0 35B#1553
(1640409549.634409) vcan0 258#B683A01FA6FA920D
(1640409549.834791) vcan0 35B#1553
(1640409550.034965) vcan0 0EC#
(1640409550.235115) vcan0 028#CE9E
(1640409550.435351) vcan0 56D#87
(1640409550.635585) vcan0 53C#E9EE2E0D
(1640409550.835812) vcan0 225#7CDF7445808DC3
(1640409551.036034) vcan0 3F9#DF5DB43AA811D64A
(1640409551.236346) vcan0 3E5#CF7007223DA6DD5C
(1640409551.436703) vcan0 4A9#E4A0706A95
(1640409551.636950) vcan0 5D5#29509320FDB5D01D
(1640409551.837306) vcan0 78A#4BA8C533F7FC55
(1640409552.037475) vcan0 2B8#695119
(1640409552.237830) vcan0 5A7#B0D6
(1640409552.438192) vcan0 599#4D0D804D9391501B
(1640409552.638413) vcan0 55B#3BA3266640813252
(1640409552.838698) vcan0 3BB#7E27102F64787C42
(1640409553.038979) vcan0 7BA#1553
(1640409553.239337) vcan0 08F#F9E5
(1640409553.439696) vcan0 7BA#1553
(1640409553.639950) vcan0 5F7#F592BD5C912B29
(1640409553.840135) vcan0 7BA#1553
(1640409554.040468) vcan0 4A3#24BD
(1640409554.240797) vcan0 36E#3FBB5B4029EFD223
(1640409554.441156) vcan0 469#8D674F66F87CA47B
